
T5AA4 000:338 SEGGER J-Link V4.96d Log File (0000ms, 0298ms total)
T5AA4 000:338 DLL Compiled: Jan 29 2015 11:45:37 (0000ms, 0298ms total)
T5AA4 000:338 Logging started @ 2017-08-28 17:59 (0000ms, 0298ms total)
T5AA4 000:338 JLINK_SetWarnOutHandler(...) (0001ms, 0299ms total)
T5AA4 000:339 JLINK_OpenEx(...)
Firmware: J-Link ARM V8 compiled Nov 28 2014 13:44:46
Hardware: V8.00
S/N: 305438322
Feature(s): RDI,FlashDL,FlashBP,JFlash,GDB  returns O.K. (0294ms, 0593ms total)
T5AA4 000:633 JLINK_SetErrorOutHandler(...) (0000ms, 0593ms total)
T5AA4 000:633 JLINK_ExecCommand("ProjectFile = "D:\kiel-v5\work\stm32f103zet6\ModBus-slave\ModBus----slave\USER\JLinkSettings.ini"", ...)  returns 0x00 (0001ms, 0594ms total)
T5AA4 000:634 JLINK_ExecCommand("Device = STM32F103ZE", ...)Device "STM32F103ZE" selected.  returns 0x00 (0003ms, 0597ms total)
T5AA4 000:637 JLINK_ExecCommand("DisableConnectionTimeout", ...)  returns 0x01 (0000ms, 0597ms total)
T5AA4 000:637 JLINK_GetHardwareVersion()  returns 0x13880 (0000ms, 0597ms total)
T5AA4 000:637 JLINK_GetDLLVersion()  returns 49604 (0000ms, 0597ms total)
T5AA4 000:637 JLINK_GetFirmwareString(...) (0000ms, 0597ms total)
T5AA4 000:639 JLINK_GetDLLVersion()  returns 49604 (0000ms, 0597ms total)
T5AA4 000:639 JLINK_GetCompileDateTime() (0001ms, 0598ms total)
T5AA4 000:640 JLINK_GetFirmwareString(...) (0000ms, 0598ms total)
T5AA4 000:641 JLINK_GetHardwareVersion()  returns 0x13880 (0000ms, 0599ms total)
T5AA4 000:644 JLINK_TIF_Select(JLINKARM_TIF_SWD)  returns 0x00 (0001ms, 0600ms total)
T5AA4 000:645 JLINK_SetSpeed(10000) (0000ms, 0600ms total)
T5AA4 000:645 JLINK_GetId() >0x108 TIF>Found SWD-DP with ID 0x1BA01477 >0x0D TIF> >0x28 TIF> >0x0D TIF> >0x28 TIF> >0x0D TIF> >0x21 TIF> >0x0D TIF> >0x28 TIF> >0x0D TIF> >0x28 TIF> >0x0D TIF> >0x28 TIF> >0x0D TIF> >0x21 TIF> >0x0D TIF> >0x21 TIF> >0x0D TIF> >0x28 TIF> >0x0D TIF> >0x21 TIF> >0x0D TIF> >0x21 TIF> >0x108 TIF>Found SWD-DP with ID 0x1BA01477 >0x0D TIF> >0x21 TIF> >0x0D TIF> >0x28 TIF> >0x0D TIF> >0x28 TIF> >0x0D TIF> >0x21 TIF> >0x0D TIF> >0x28 TIF> >0x0D TIF> >0x21 TIF> >0x0D TIF> >0x21 TIF>
 >0x0D TIF> >0x21 TIF> >0x0D TIF> >0x21 TIF> >0x0D TIF> >0x28 TIF> >0x0D TIF> >0x28 TIF> >0x0D TIF> >0x21 TIF> >0x0D TIF> >0x28 TIF> >0x0D TIF> >0x28 TIF> >0x0D TIF> >0x28 TIF> >0x0D TIF> >0x21 TIF> >0x0D TIF> >0x21 TIF> >0x0D TIF> >0x28 TIF> >0x0D TIF> >0x21 TIF> >0x0D TIF> >0x21 TIF>Found Cortex-M3 r2p1, Little endian. -- CPU_WriteMem(4 bytes @ 0xE0002000) -- CPU_ReadMem(4 bytes @ 0xE000EDF0) -- CPU_ReadMem(4 bytes @ 0xE0002000)FPUnit: 6 code (BP) slots and 2 literal slots
 -- CPU_ReadMem(4 bytes @ 0xE000EDFC) -- CPU_ReadMem(4 bytes @ 0xE0001000) -- CPU_WriteMem(4 bytes @ 0xE0001000) -- CPU_ReadMem(4 bytes @ 0xE000ED88) -- CPU_WriteMem(4 bytes @ 0xE000ED88) -- CPU_ReadMem(4 bytes @ 0xE000ED88) -- CPU_WriteMem(4 bytes @ 0xE000ED88) -- CPU_ReadMem(4 bytes @ 0xE00FF010)TPIU fitted. -- CPU_ReadMem(4 bytes @ 0xE00FF014)ETM fitted. -- CPU_ReadMem(4 bytes @ 0xE00FF018) >0x0D TIF> >0x21 TIF>  returns 0x1BA01477 (0036ms, 0636ms total)
T5AA4 000:681 JLINK_GetDLLVersion()  returns 49604 (0000ms, 0636ms total)
T5AA4 000:681 JLINK_CORE_GetFound()  returns 0x30000FF (0000ms, 0636ms total)
T5AA4 000:681 JLINK_GetDebugInfo(0x100) -- Value=0xE00FF003  returns 0x00 (0000ms, 0636ms total)
T5AA4 000:681 JLINK_ReadMem (0xE00FF000, 0x0020 Bytes, ...) -- CPU is running -- CPU_ReadMem(32 bytes @ 0xE00FF000) - Data: 03 F0 F0 FF 03 20 F0 FF 03 30 F0 FF 03 10 F0 FF ...  returns 0x00 (0001ms, 0637ms total)
T5AA4 000:682 JLINK_ReadMem (0xE000EFF0, 0x0010 Bytes, ...) -- CPU is running -- CPU_ReadMem(16 bytes @ 0xE000EFF0) - Data: 0D 00 00 00 E0 00 00 00 05 00 00 00 B1 00 00 00  returns 0x00 (0000ms, 0637ms total)
T5AA4 000:682 JLINK_ReadMem (0xE000EFD0, 0x0020 Bytes, ...) -- CPU is running -- CPU_ReadMem(32 bytes @ 0xE000EFD0) - Data: 04 00 00 00 00 00 00 00 00 00 00 00 00 00 00 00 ...  returns 0x00 (0001ms, 0638ms total)
T5AA4 000:683 JLINK_ReadMem (0xE0001FF0, 0x0010 Bytes, ...) -- CPU is running -- CPU_ReadMem(16 bytes @ 0xE0001FF0) - Data: 0D 00 00 00 E0 00 00 00 05 00 00 00 B1 00 00 00  returns 0x00 (0000ms, 0638ms total)
T5AA4 000:683 JLINK_ReadMem (0xE0001FD0, 0x0020 Bytes, ...) -- CPU is running -- CPU_ReadMem(32 bytes @ 0xE0001FD0) - Data: 04 00 00 00 00 00 00 00 00 00 00 00 00 00 00 00 ...  returns 0x00 (0001ms, 0639ms total)
T5AA4 000:684 JLINK_ReadMem (0xE0002FF0, 0x0010 Bytes, ...) -- CPU is running -- CPU_ReadMem(16 bytes @ 0xE0002FF0) - Data: 0D 00 00 00 E0 00 00 00 05 00 00 00 B1 00 00 00  returns 0x00 (0000ms, 0639ms total)
T5AA4 000:684 JLINK_ReadMem (0xE0002FD0, 0x0020 Bytes, ...) -- CPU is running -- CPU_ReadMem(32 bytes @ 0xE0002FD0) - Data: 04 00 00 00 00 00 00 00 00 00 00 00 00 00 00 00 ...  returns 0x00 (0001ms, 0640ms total)
T5AA4 000:685 JLINK_ReadMem (0xE0000FF0, 0x0010 Bytes, ...) -- CPU is running -- CPU_ReadMem(16 bytes @ 0xE0000FF0) - Data: 0D 00 00 00 E0 00 00 00 05 00 00 00 B1 00 00 00  returns 0x00 (0001ms, 0641ms total)
T5AA4 000:686 JLINK_ReadMem (0xE0000FD0, 0x0020 Bytes, ...) -- CPU is running -- CPU_ReadMem(32 bytes @ 0xE0000FD0) - Data: 04 00 00 00 00 00 00 00 00 00 00 00 00 00 00 00 ...  returns 0x00 (0000ms, 0641ms total)
T5AA4 000:686 JLINK_ReadMem (0xE0040FF0, 0x0010 Bytes, ...) -- CPU is running -- CPU_ReadMem(16 bytes @ 0xE0040FF0) - Data: 0D 00 00 00 90 00 00 00 05 00 00 00 B1 00 00 00  returns 0x00 (0001ms, 0642ms total)
T5AA4 000:687 JLINK_ReadMem (0xE0040FD0, 0x0020 Bytes, ...) -- CPU is running -- CPU_ReadMem(32 bytes @ 0xE0040FD0) - Data: 04 00 00 00 00 00 00 00 00 00 00 00 00 00 00 00 ...  returns 0x00 (0000ms, 0642ms total)
T5AA4 000:687 JLINK_ReadMem (0xE0041FF0, 0x0010 Bytes, ...) -- CPU is running -- CPU_ReadMem(16 bytes @ 0xE0041FF0) - Data: 0D 00 00 00 90 00 00 00 05 00 00 00 B1 00 00 00  returns 0x00 (0001ms, 0643ms total)
T5AA4 000:688 JLINK_ReadMem (0xE0041FD0, 0x0020 Bytes, ...) -- CPU is running -- CPU_ReadMem(32 bytes @ 0xE0041FD0) - Data: 04 00 00 00 00 00 00 00 00 00 00 00 00 00 00 00 ...  returns 0x00 (0000ms, 0643ms total)
T5AA4 000:688 JLINK_ReadMemU32(0xE000ED00, 0x0001 Items, ...) -- CPU is running -- CPU_ReadMem(4 bytes @ 0xE000ED00) - Data: 31 C2 2F 41  returns 0x01 (0001ms, 0644ms total)
T5AA4 000:689 JLINK_SetResetType(JLINKARM_RESET_TYPE_NORMAL)  returns JLINKARM_RESET_TYPE_NORMAL (0000ms, 0644ms total)
T5AA4 000:689 JLINK_Reset() -- CPU is running -- CPU_WriteMem(4 bytes @ 0xE000EDF0) -- CPU is running -- CPU_WriteMem(4 bytes @ 0xE000EDFC) >0x35 TIF> -- CPU is running -- CPU_WriteMem(4 bytes @ 0xE000ED0C) -- CPU is running -- CPU_ReadMem(4 bytes @ 0xE000EDF0) -- CPU is running -- CPU_ReadMem(4 bytes @ 0xE000EDF0) -- CPU is running -- CPU_WriteMem(4 bytes @ 0xE000EDF0) -- CPU is running -- CPU_WriteMem(4 bytes @ 0xE000EDFC) -- CPU is running -- CPU_ReadMem(4 bytes @ 0xE000EDF0)
 -- CPU_WriteMem(4 bytes @ 0xE0002000) -- CPU_ReadMem(4 bytes @ 0xE000EDFC) -- CPU_ReadMem(4 bytes @ 0xE0001000) (0016ms, 0660ms total)
T5AA4 000:705 JLINK_ReadReg(R15 (PC))  returns 0x0800116C (0000ms, 0660ms total)
T5AA4 000:705 JLINK_ReadReg(XPSR)  returns 0x01000000 (0000ms, 0660ms total)
T5AA4 000:705 JLINK_Halt()  returns 0x00 (0000ms, 0660ms total)
T5AA4 000:705 JLINK_IsHalted()  returns TRUE (0000ms, 0660ms total)
T5AA4 000:705 JLINK_ReadMemU32(0xE000EDF0, 0x0001 Items, ...) -- CPU_ReadMem(4 bytes @ 0xE000EDF0) - Data: 03 00 03 00  returns 0x01 (0001ms, 0661ms total)
T5AA4 000:706 JLINK_WriteU32(0xE000EDF0, 0xA05F0003) -- CPU_WriteMem(4 bytes @ 0xE000EDF0)  returns 0x00 (0000ms, 0661ms total)
T5AA4 000:706 JLINK_WriteU32(0xE000EDFC, 0x01000000) -- CPU_WriteMem(4 bytes @ 0xE000EDFC)  returns 0x00 (0001ms, 0662ms total)
T5AA4 000:707 JLINK_GetHWStatus(...)  returns 0x00 (0001ms, 0663ms total)
T5AA4 000:708 JLINK_GetNumBPUnits(Type = 0xFFFFFF00)  returns 0x06 (0000ms, 0663ms total)
T5AA4 000:708 JLINK_GetNumBPUnits(Type = 0xF0)  returns 0x2000 (0000ms, 0663ms total)
T5AA4 000:708 JLINK_GetNumWPUnits()  returns 0x04 (0000ms, 0663ms total)
T5AA4 000:709 JLINK_GetSpeed()  returns 0xFA0 (0000ms, 0663ms total)
T5AA4 000:709 JLINK_ReadMemU32(0xE000E004, 0x0001 Items, ...) -- CPU_ReadMem(4 bytes @ 0xE000E004) - Data: 02 00 00 00  returns 0x01 (0000ms, 0663ms total)
T5AA4 000:709 JLINK_ReadMemU32(0xE000E004, 0x0001 Items, ...) -- CPU_ReadMem(4 bytes @ 0xE000E004) - Data: 02 00 00 00  returns 0x01 (0001ms, 0664ms total)
T5AA4 000:710 JLINK_WriteMem(0xE0001000, 0x001C Bytes, ...) - Data: 01 00 00 00 00 00 00 00 00 00 00 00 00 00 00 00 ... -- CPU_WriteMem(28 bytes @ 0xE0001000)  returns 0x1C (0001ms, 0665ms total)
T5AA4 000:711 JLINK_ReadMem (0xE0001000, 0x001C Bytes, ...) -- CPU_ReadMem(28 bytes @ 0xE0001000) - Data: 01 00 00 40 00 00 00 00 00 00 00 00 00 00 00 00 ...  returns 0x00 (0000ms, 0665ms total)
T5AA4 000:711 JLINK_ReadReg(R15 (PC))  returns 0x0800116C (0000ms, 0665ms total)
T5AA4 000:711 JLINK_ReadReg(XPSR)  returns 0x01000000 (0000ms, 0665ms total)
T5AA4 000:795 JLINK_SetResetType(JLINKARM_RESET_TYPE_NORMAL)  returns JLINKARM_RESET_TYPE_NORMAL (0000ms, 0665ms total)
T5AA4 000:795 JLINK_Reset() -- CPU_WriteMem(4 bytes @ 0xE000EDF0) -- CPU_WriteMem(4 bytes @ 0xE000EDFC) >0x35 TIF> -- CPU_WriteMem(4 bytes @ 0xE000ED0C) -- CPU_ReadMem(4 bytes @ 0xE000EDF0) -- CPU_ReadMem(4 bytes @ 0xE000EDF0) -- CPU_WriteMem(4 bytes @ 0xE000EDF0) -- CPU_WriteMem(4 bytes @ 0xE000EDFC) -- CPU is running -- CPU_ReadMem(4 bytes @ 0xE000EDF0) -- CPU_WriteMem(4 bytes @ 0xE0002000) -- CPU_ReadMem(4 bytes @ 0xE000EDFC) -- CPU_ReadMem(4 bytes @ 0xE0001000) (0017ms, 0682ms total)
T5AA4 000:812 JLINK_ReadReg(R15 (PC))  returns 0x0800116C (0000ms, 0682ms total)
T5AA4 000:812 JLINK_ReadReg(XPSR)  returns 0x01000000 (0000ms, 0682ms total)
T5AA4 002:207 JLINK_ReadMem (0x00000000, 0x0114 Bytes, ...) -- CPU_ReadMem(4 bytes @ 0x00000004) -- CPU_ReadMem(320 bytes @ 0x08000000) -- Updating C cache (320 bytes @ 0x08000000) -- Read from C cache (276 bytes @ 0x08000000) - Data: 78 29 00 20 6D 11 00 08 01 02 00 08 03 02 00 08 ...  returns 0x00 (0004ms, 0686ms total)
T5AA4 002:629 JLINK_ReadMem (0x0800116C, 0x003C Bytes, ...) -- CPU_ReadMem(128 bytes @ 0x08001140) -- Updating C cache (128 bytes @ 0x08001140) -- Read from C cache (60 bytes @ 0x0800116C) - Data: 09 48 80 47 09 48 00 47 FE E7 FE E7 FE E7 FE E7 ...  returns 0x00 (0001ms, 0687ms total)
T5AA4 003:216 JLINK_ReadMem (0x2000003C, 0x0002 Bytes, ...) -- CPU_ReadMem(64 bytes @ 0x20000000) -- Updating C cache (64 bytes @ 0x20000000) -- Read from C cache (2 bytes @ 0x2000003C) - Data: 00 00  returns 0x00 (0001ms, 0688ms total)
T5AA4 003:295 JLINK_ReadMem (0x20000858, 0x0001 Bytes, ...) -- CPU_ReadMem(64 bytes @ 0x20000840) -- Updating C cache (64 bytes @ 0x20000840) -- Read from C cache (1 bytes @ 0x20000858) - Data: 00  returns 0x00 (0001ms, 0689ms total)
T5AA4 003:374 JLINK_ReadMem (0x20000000, 0x0004 Bytes, ...) -- Read from C cache (4 bytes @ 0x20000000) - Data: 02 78 20 00  returns 0x00 (0000ms, 0689ms total)
T493C 003:746 JLINK_SetBPEx(Addr = 0x080001CC, Type = 0xFFFFFFF2)  returns 0x00000001 (0000ms, 0689ms total)
T493C 003:746 JLINK_Go() -- CPU_WriteMem(4 bytes @ 0xE0002000) -- CPU_WriteMem(4 bytes @ 0xE0002008) -- CPU_WriteMem(4 bytes @ 0xE000200C) -- CPU_WriteMem(4 bytes @ 0xE0002010) -- CPU_WriteMem(4 bytes @ 0xE0002014) -- CPU_WriteMem(4 bytes @ 0xE0002018) -- CPU_WriteMem(4 bytes @ 0xE000201C) -- CPU_WriteMem(4 bytes @ 0xE0001004) (0004ms, 0693ms total)
T493C 003:850 JLINK_IsHalted()  returns TRUE (0002ms, 0695ms total)
T493C 003:852 JLINK_Halt()  returns 0x00 (0000ms, 0693ms total)
T493C 003:852 JLINK_IsHalted()  returns TRUE (0000ms, 0693ms total)
T493C 003:852 JLINK_IsHalted()  returns TRUE (0000ms, 0693ms total)
T493C 003:852 JLINK_IsHalted()  returns TRUE (0000ms, 0693ms total)
T493C 003:852 JLINK_ReadReg(R15 (PC))  returns 0x080001CC (0000ms, 0693ms total)
T493C 003:852 JLINK_ReadReg(XPSR)  returns 0x21000000 (0000ms, 0693ms total)
T493C 003:852 JLINK_ClrBPEx(BPHandle = 0x00000001)  returns 0x00 (0000ms, 0693ms total)
T493C 003:852 JLINK_ReadMemU32(0xE000ED30, 0x0001 Items, ...) -- CPU_ReadMem(4 bytes @ 0xE000ED30) - Data: 03 00 00 00  returns 0x01 (0001ms, 0694ms total)
T493C 003:853 JLINK_ReadMemU32(0xE0001028, 0x0001 Items, ...) -- CPU_ReadMem(4 bytes @ 0xE0001028) - Data: 00 00 00 00  returns 0x01 (0000ms, 0694ms total)
T493C 003:853 JLINK_ReadMemU32(0xE0001038, 0x0001 Items, ...) -- CPU_ReadMem(4 bytes @ 0xE0001038) - Data: 00 02 00 00  returns 0x01 (0000ms, 0694ms total)
T493C 003:853 JLINK_ReadMemU32(0xE0001048, 0x0001 Items, ...) -- CPU_ReadMem(4 bytes @ 0xE0001048) - Data: 00 00 00 00  returns 0x01 (0001ms, 0695ms total)
T493C 003:854 JLINK_ReadMemU32(0xE0001058, 0x0001 Items, ...) -- CPU_ReadMem(4 bytes @ 0xE0001058) - Data: 00 00 00 00  returns 0x01 (0000ms, 0695ms total)
T493C 003:854 JLINK_ReadReg(R0)  returns 0x20002378 (0000ms, 0695ms total)
T493C 003:854 JLINK_ReadReg(R1)  returns 0x20002578 (0000ms, 0695ms total)
T493C 003:854 JLINK_ReadReg(R2)  returns 0x20002578 (0000ms, 0695ms total)
T493C 003:854 JLINK_ReadReg(R3)  returns 0x20002578 (0000ms, 0695ms total)
T493C 003:854 JLINK_ReadReg(R4)  returns 0x00000000 (0001ms, 0696ms total)
T493C 003:855 JLINK_ReadReg(R5)  returns 0x20002318 (0000ms, 0696ms total)
T493C 003:855 JLINK_ReadReg(R6)  returns 0x00000000 (0000ms, 0696ms total)
T493C 003:855 JLINK_ReadReg(R7)  returns 0x00000000 (0000ms, 0696ms total)
T493C 003:855 JLINK_ReadReg(R8)  returns 0x00000000 (0000ms, 0696ms total)
T493C 003:855 JLINK_ReadReg(R9)  returns 0x20000160 (0000ms, 0696ms total)
T493C 003:855 JLINK_ReadReg(R10)  returns 0x08002E38 (0000ms, 0696ms total)
T493C 003:855 JLINK_ReadReg(R11)  returns 0x00000000 (0000ms, 0696ms total)
T493C 003:855 JLINK_ReadReg(R12)  returns 0x20002358 (0000ms, 0696ms total)
T493C 003:855 JLINK_ReadReg(R13 (SP))  returns 0x20002978 (0000ms, 0696ms total)
T493C 003:855 JLINK_ReadReg(R14)  returns 0x080001BB (0000ms, 0696ms total)
T493C 003:855 JLINK_ReadReg(R15 (PC))  returns 0x080001CC (0000ms, 0696ms total)
T493C 003:855 JLINK_ReadReg(XPSR)  returns 0x21000000 (0000ms, 0696ms total)
T493C 003:855 JLINK_ReadReg(MSP)  returns 0x20002978 (0000ms, 0696ms total)
T493C 003:855 JLINK_ReadReg(PSP)  returns 0x20001000 (0000ms, 0696ms total)
T493C 003:855 JLINK_ReadReg(CFBP)  returns 0x00000000 (0000ms, 0696ms total)
T5AA4 003:860 JLINK_ReadMemU32(0xE0001004, 0x0001 Items, ...) -- CPU_ReadMem(4 bytes @ 0xE0001004) - Data: 8F 4D 00 00  returns 0x01 (0000ms, 0696ms total)
T5AA4 003:863 JLINK_ReadMem (0x2000003C, 0x0002 Bytes, ...) -- CPU_ReadMem(64 bytes @ 0x20000000) -- Updating C cache (64 bytes @ 0x20000000) -- Read from C cache (2 bytes @ 0x2000003C) - Data: 00 00  returns 0x00 (0001ms, 0697ms total)
T5AA4 003:865 JLINK_ReadMem (0x20000858, 0x0001 Bytes, ...) -- CPU_ReadMem(64 bytes @ 0x20000840) -- Updating C cache (64 bytes @ 0x20000840) -- Read from C cache (1 bytes @ 0x20000858) - Data: 00  returns 0x00 (0001ms, 0698ms total)
T5AA4 003:866 JLINK_ReadMem (0x20000000, 0x0004 Bytes, ...) -- Read from C cache (4 bytes @ 0x20000000) - Data: 00 00 00 00  returns 0x00 (0000ms, 0698ms total)
T493C 011:724 JLINK_Go() -- CPU_WriteMem(4 bytes @ 0xE0002008) (0001ms, 0699ms total)
T493C 011:826 JLINK_IsHalted()  returns FALSE (0000ms, 0699ms total)
T493C 011:928 JLINK_IsHalted()  returns FALSE (0000ms, 0699ms total)
T493C 012:029 JLINK_IsHalted()  returns FALSE (0000ms, 0699ms total)
T493C 012:129 JLINK_IsHalted()  returns FALSE (0000ms, 0699ms total)
T493C 012:230 JLINK_IsHalted()  returns FALSE (0000ms, 0699ms total)
T493C 012:331 JLINK_IsHalted()  returns FALSE (0000ms, 0699ms total)
T493C 012:433 JLINK_IsHalted()  returns FALSE (0000ms, 0699ms total)
T493C 012:534 JLINK_IsHalted()  returns FALSE (0000ms, 0699ms total)
T493C 012:634 JLINK_IsHalted()  returns FALSE (0000ms, 0699ms total)
T493C 012:735 JLINK_IsHalted()  returns FALSE (0000ms, 0699ms total)
T493C 012:836 JLINK_IsHalted()  returns FALSE (0000ms, 0699ms total)
T493C 012:937 JLINK_IsHalted()  returns FALSE (0000ms, 0699ms total)
T493C 013:039 JLINK_IsHalted()  returns FALSE (0000ms, 0699ms total)
T493C 013:139 JLINK_IsHalted()  returns FALSE (0000ms, 0699ms total)
T493C 013:240 JLINK_IsHalted()  returns FALSE (0000ms, 0699ms total)
T493C 013:342 JLINK_IsHalted()  returns FALSE (0000ms, 0699ms total)
T493C 013:443 JLINK_IsHalted()  returns FALSE (0000ms, 0699ms total)
T493C 013:545 JLINK_IsHalted()  returns FALSE (0000ms, 0699ms total)
T493C 013:646 JLINK_IsHalted()  returns FALSE (0000ms, 0699ms total)
T493C 013:746 JLINK_IsHalted()  returns FALSE (0000ms, 0699ms total)
T493C 013:848 JLINK_IsHalted()  returns FALSE (0000ms, 0699ms total)
T493C 013:948 JLINK_IsHalted()  returns FALSE (0000ms, 0699ms total)
T493C 014:049 JLINK_IsHalted()  returns FALSE (0000ms, 0699ms total)
T493C 014:151 JLINK_IsHalted()  returns FALSE (0000ms, 0699ms total)
T493C 014:252 JLINK_IsHalted()  returns FALSE (0000ms, 0699ms total)
T493C 014:354 JLINK_IsHalted()  returns FALSE (0000ms, 0699ms total)
T493C 014:455 JLINK_IsHalted()  returns FALSE (0000ms, 0699ms total)
T493C 014:556 JLINK_IsHalted()  returns FALSE (0000ms, 0699ms total)
T493C 014:657 JLINK_IsHalted()  returns FALSE (0000ms, 0699ms total)
T493C 014:758 JLINK_IsHalted()  returns FALSE (0000ms, 0699ms total)
T493C 014:860 JLINK_IsHalted()  returns FALSE (0000ms, 0699ms total)
T493C 014:960 JLINK_IsHalted()  returns FALSE (0000ms, 0699ms total)
T493C 015:061 JLINK_IsHalted()  returns FALSE (0000ms, 0699ms total)
T493C 015:162 JLINK_IsHalted()  returns FALSE (0000ms, 0699ms total)
T493C 015:263 JLINK_IsHalted()  returns FALSE (0000ms, 0699ms total)
T493C 015:363 JLINK_IsHalted()  returns FALSE (0000ms, 0699ms total)
T493C 015:464 JLINK_IsHalted()  returns FALSE (0000ms, 0699ms total)
T493C 015:565 JLINK_IsHalted()  returns FALSE (0000ms, 0699ms total)
T493C 015:666 JLINK_IsHalted()  returns FALSE (0000ms, 0699ms total)
T493C 015:766 JLINK_IsHalted()  returns FALSE (0000ms, 0699ms total)
T493C 015:867 JLINK_IsHalted()  returns FALSE (0000ms, 0699ms total)
T493C 015:969 JLINK_IsHalted()  returns FALSE (0000ms, 0699ms total)
T493C 016:070 JLINK_IsHalted()  returns FALSE (0000ms, 0699ms total)
T493C 016:171 JLINK_IsHalted()  returns FALSE (0000ms, 0699ms total)
T493C 016:272 JLINK_IsHalted()  returns FALSE (0000ms, 0699ms total)
T493C 016:373 JLINK_IsHalted()  returns FALSE (0000ms, 0699ms total)
T493C 016:475 JLINK_IsHalted()  returns FALSE (0000ms, 0699ms total)
T493C 016:575 JLINK_IsHalted()  returns FALSE (0000ms, 0699ms total)
T493C 016:676 JLINK_IsHalted()  returns FALSE (0000ms, 0699ms total)
T493C 016:777 JLINK_IsHalted()  returns FALSE (0000ms, 0699ms total)
T493C 016:879 JLINK_IsHalted()  returns FALSE (0000ms, 0699ms total)
T493C 016:979 JLINK_IsHalted()  returns FALSE (0000ms, 0699ms total)
T493C 017:080 JLINK_IsHalted()  returns FALSE (0000ms, 0699ms total)
T493C 017:182 JLINK_IsHalted()  returns FALSE (0000ms, 0699ms total)
T493C 017:283 JLINK_IsHalted()  returns FALSE (0000ms, 0699ms total)
T493C 017:384 JLINK_IsHalted()  returns FALSE (0000ms, 0699ms total)
T493C 017:485 JLINK_IsHalted()  returns FALSE (0000ms, 0699ms total)
T493C 017:586 JLINK_IsHalted()  returns FALSE (0000ms, 0699ms total)
T493C 017:687 JLINK_IsHalted()  returns FALSE (0000ms, 0699ms total)
T493C 017:788 JLINK_IsHalted()  returns FALSE (0000ms, 0699ms total)
T493C 017:889 JLINK_IsHalted()  returns FALSE (0000ms, 0699ms total)
T493C 017:989 JLINK_IsHalted()  returns FALSE (0000ms, 0699ms total)
T493C 018:091 JLINK_IsHalted()  returns FALSE (0000ms, 0699ms total)
T493C 018:192 JLINK_IsHalted()  returns FALSE (0000ms, 0699ms total)
T493C 018:292 JLINK_IsHalted()  returns FALSE (0000ms, 0699ms total)
T493C 018:394 JLINK_IsHalted()  returns FALSE (0000ms, 0699ms total)
T493C 018:495 JLINK_IsHalted()  returns FALSE (0000ms, 0699ms total)
T493C 018:595 JLINK_IsHalted()  returns FALSE (0001ms, 0700ms total)
T493C 018:696 JLINK_IsHalted()  returns FALSE (0000ms, 0699ms total)
T493C 018:797 JLINK_IsHalted()  returns FALSE (0000ms, 0699ms total)
T493C 018:898 JLINK_IsHalted()  returns FALSE (0000ms, 0699ms total)
T493C 018:998 JLINK_IsHalted()  returns FALSE (0001ms, 0700ms total)
T493C 019:099 JLINK_IsHalted()  returns FALSE (0000ms, 0699ms total)
T493C 019:200 JLINK_IsHalted()  returns FALSE (0001ms, 0700ms total)
T493C 019:301 JLINK_IsHalted()  returns FALSE (0001ms, 0700ms total)
T493C 019:402 JLINK_IsHalted()  returns FALSE (0000ms, 0699ms total)
T493C 019:503 JLINK_IsHalted()  returns FALSE (0000ms, 0699ms total)
T493C 019:603 JLINK_IsHalted()  returns FALSE (0001ms, 0700ms total)
T493C 019:704 JLINK_IsHalted()  returns FALSE (0001ms, 0700ms total)
T493C 019:805 JLINK_IsHalted()  returns FALSE (0001ms, 0700ms total)
T5AA4 019:891 JLINK_SetBPEx(Addr = 0x080001EA, Type = 0xFFFFFFF2) -- CPU is running -- CPU is running -- CPU_WriteMem(4 bytes @ 0xE0002000) -- CPU is running -- CPU_WriteMem(4 bytes @ 0xE0002008)  returns 0x00000002 (0001ms, 0700ms total)
T493C 019:906 JLINK_IsHalted()  returns TRUE (0003ms, 0703ms total)
T493C 019:909 JLINK_Halt()  returns 0x00 (0000ms, 0700ms total)
T493C 019:909 JLINK_IsHalted()  returns TRUE (0000ms, 0700ms total)
T493C 019:909 JLINK_IsHalted()  returns TRUE (0000ms, 0700ms total)
T493C 019:909 JLINK_IsHalted()  returns TRUE (0000ms, 0700ms total)
T493C 019:909 JLINK_ReadReg(R15 (PC))  returns 0x080001EA (0000ms, 0700ms total)
T493C 019:909 JLINK_ReadReg(XPSR)  returns 0x81000000 (0000ms, 0700ms total)
T493C 019:909 JLINK_ClrBPEx(BPHandle = 0x00000002)  returns 0x00 (0000ms, 0700ms total)
T493C 019:909 JLINK_ReadMemU32(0xE000ED30, 0x0001 Items, ...) -- CPU_ReadMem(4 bytes @ 0xE000ED30) - Data: 03 00 00 00  returns 0x01 (0000ms, 0700ms total)
T493C 019:909 JLINK_ReadMemU32(0xE0001028, 0x0001 Items, ...) -- CPU_ReadMem(4 bytes @ 0xE0001028) - Data: 00 00 00 00  returns 0x01 (0001ms, 0701ms total)
T493C 019:910 JLINK_ReadMemU32(0xE0001038, 0x0001 Items, ...) -- CPU_ReadMem(4 bytes @ 0xE0001038) - Data: 00 02 00 00  returns 0x01 (0001ms, 0702ms total)
T493C 019:911 JLINK_ReadMemU32(0xE0001048, 0x0001 Items, ...) -- CPU_ReadMem(4 bytes @ 0xE0001048) - Data: 00 00 00 00  returns 0x01 (0000ms, 0702ms total)
T493C 019:911 JLINK_ReadMemU32(0xE0001058, 0x0001 Items, ...) -- CPU_ReadMem(4 bytes @ 0xE0001058) - Data: 00 00 00 00  returns 0x01 (0000ms, 0702ms total)
T493C 019:912 JLINK_ReadReg(R0)  returns 0x00000000 (0000ms, 0702ms total)
T493C 019:912 JLINK_ReadReg(R1)  returns 0x20000000 (0000ms, 0702ms total)
T493C 019:912 JLINK_ReadReg(R2)  returns 0xE000ED0C (0000ms, 0702ms total)
T493C 019:912 JLINK_ReadReg(R3)  returns 0x10036000 (0000ms, 0702ms total)
T493C 019:912 JLINK_ReadReg(R4)  returns 0x00000000 (0000ms, 0702ms total)
T493C 019:912 JLINK_ReadReg(R5)  returns 0x20002318 (0000ms, 0702ms total)
T493C 019:912 JLINK_ReadReg(R6)  returns 0x00000000 (0000ms, 0702ms total)
T493C 019:912 JLINK_ReadReg(R7)  returns 0x00000000 (0000ms, 0702ms total)
T493C 019:912 JLINK_ReadReg(R8)  returns 0x00000000 (0000ms, 0702ms total)
T493C 019:912 JLINK_ReadReg(R9)  returns 0x20000160 (0000ms, 0702ms total)
T493C 019:912 JLINK_ReadReg(R10)  returns 0x08002E38 (0000ms, 0702ms total)
T493C 019:912 JLINK_ReadReg(R11)  returns 0x00000000 (0000ms, 0702ms total)
T493C 019:912 JLINK_ReadReg(R12)  returns 0x00006000 (0000ms, 0702ms total)
T493C 019:912 JLINK_ReadReg(R13 (SP))  returns 0x20002978 (0000ms, 0702ms total)
T493C 019:912 JLINK_ReadReg(R14)  returns 0x080001F9 (0000ms, 0702ms total)
T493C 019:912 JLINK_ReadReg(R15 (PC))  returns 0x080001EA (0000ms, 0702ms total)
T493C 019:912 JLINK_ReadReg(XPSR)  returns 0x81000000 (0000ms, 0702ms total)
T493C 019:912 JLINK_ReadReg(MSP)  returns 0x20002978 (0001ms, 0703ms total)
T493C 019:913 JLINK_ReadReg(PSP)  returns 0x20001000 (0000ms, 0703ms total)
T493C 019:913 JLINK_ReadReg(CFBP)  returns 0x00000000 (0000ms, 0703ms total)
T5AA4 019:920 JLINK_ReadMemU32(0xE0001004, 0x0001 Items, ...) -- CPU_ReadMem(4 bytes @ 0xE0001004) - Data: 41 7E 0C 23  returns 0x01 (0001ms, 0704ms total)
T5AA4 019:921 JLINK_ReadMem (0x2000003C, 0x0002 Bytes, ...) -- CPU_ReadMem(64 bytes @ 0x20000000) -- Updating C cache (64 bytes @ 0x20000000) -- Read from C cache (2 bytes @ 0x2000003C) - Data: 00 00  returns 0x00 (0001ms, 0705ms total)
T5AA4 019:923 JLINK_ReadMem (0x20000858, 0x0001 Bytes, ...) -- CPU_ReadMem(64 bytes @ 0x20000840) -- Updating C cache (64 bytes @ 0x20000840) -- Read from C cache (1 bytes @ 0x20000858) - Data: 00  returns 0x00 (0001ms, 0706ms total)
T5AA4 019:924 JLINK_ReadMem (0x20000000, 0x0004 Bytes, ...) -- Read from C cache (4 bytes @ 0x20000000) - Data: FB E2 07 01  returns 0x00 (0000ms, 0706ms total)
T493C 024:851 JLINK_ReadMem (0x080001EA, 0x0002 Bytes, ...) -- CPU_ReadMem(64 bytes @ 0x080001C0) -- Updating C cache (64 bytes @ 0x080001C0) -- Read from C cache (2 bytes @ 0x080001EA) - Data: 04 48  returns 0x00 (0002ms, 0708ms total)
T493C 024:853 JLINK_ReadMem (0x080001EC, 0x003C Bytes, ...) -- CPU_ReadMem(64 bytes @ 0x08000200) -- Updating C cache (64 bytes @ 0x08000200) -- Read from C cache (60 bytes @ 0x080001EC) - Data: 00 68 40 1C 02 49 08 60 00 F0 EE FD F7 E7 00 00 ...  returns 0x00 (0000ms, 0708ms total)
T493C 024:853 JLINK_Step() -- Read from C cache (2 bytes @ 0x080001EA) -- Read from C cache (4 bytes @ 0x080001FC) -- Simulated  returns 0x00 (0001ms, 0709ms total)
T493C 024:854 JLINK_ReadReg(R15 (PC))  returns 0x080001EC (0000ms, 0709ms total)
T493C 024:854 JLINK_ReadReg(XPSR)  returns 0x81000000 (0000ms, 0709ms total)
T493C 024:854 JLINK_Step() -- Read from C cache (2 bytes @ 0x080001EC) -- Read from C cache (4 bytes @ 0x20000000) -- Simulated  returns 0x00 (0000ms, 0709ms total)
T493C 024:854 JLINK_ReadReg(R15 (PC))  returns 0x080001EE (0000ms, 0709ms total)
T493C 024:854 JLINK_ReadReg(XPSR)  returns 0x81000000 (0000ms, 0709ms total)
T493C 024:854 JLINK_Step() -- Read from C cache (2 bytes @ 0x080001EE) -- Simulated  returns 0x00 (0000ms, 0709ms total)
T493C 024:854 JLINK_ReadReg(R15 (PC))  returns 0x080001F0 (0000ms, 0709ms total)
T493C 024:854 JLINK_ReadReg(XPSR)  returns 0x01000000 (0000ms, 0709ms total)
T493C 024:854 JLINK_Step() -- Read from C cache (2 bytes @ 0x080001F0) -- Read from C cache (4 bytes @ 0x080001FC) -- Simulated  returns 0x00 (0000ms, 0709ms total)
T493C 024:854 JLINK_ReadReg(R15 (PC))  returns 0x080001F2 (0000ms, 0709ms total)
T493C 024:854 JLINK_ReadReg(XPSR)  returns 0x01000000 (0000ms, 0709ms total)
T493C 024:854 JLINK_Step() -- Read from C cache (2 bytes @ 0x080001F2) -- CPU_WriteMem(4 bytes @ 0x20000000) -- Simulated  returns 0x00 (0001ms, 0710ms total)
T493C 024:855 JLINK_ReadReg(R15 (PC))  returns 0x080001F4 (0000ms, 0710ms total)
T493C 024:855 JLINK_ReadReg(XPSR)  returns 0x01000000 (0000ms, 0710ms total)
T493C 024:855 JLINK_ReadReg(R0)  returns 0x0107E2FC (0000ms, 0710ms total)
T493C 024:855 JLINK_ReadReg(R1)  returns 0x20000000 (0000ms, 0710ms total)
T493C 024:855 JLINK_ReadReg(R2)  returns 0xE000ED0C (0000ms, 0710ms total)
T493C 024:855 JLINK_ReadReg(R3)  returns 0x10036000 (0000ms, 0710ms total)
T493C 024:855 JLINK_ReadReg(R4)  returns 0x00000000 (0000ms, 0710ms total)
T493C 024:855 JLINK_ReadReg(R5)  returns 0x20002318 (0000ms, 0710ms total)
T493C 024:855 JLINK_ReadReg(R6)  returns 0x00000000 (0000ms, 0710ms total)
T493C 024:855 JLINK_ReadReg(R7)  returns 0x00000000 (0000ms, 0710ms total)
T493C 024:855 JLINK_ReadReg(R8)  returns 0x00000000 (0000ms, 0710ms total)
T493C 024:855 JLINK_ReadReg(R9)  returns 0x20000160 (0000ms, 0710ms total)
T493C 024:855 JLINK_ReadReg(R10)  returns 0x08002E38 (0000ms, 0710ms total)
T493C 024:855 JLINK_ReadReg(R11)  returns 0x00000000 (0000ms, 0710ms total)
T493C 024:855 JLINK_ReadReg(R12)  returns 0x00006000 (0000ms, 0710ms total)
T493C 024:855 JLINK_ReadReg(R13 (SP))  returns 0x20002978 (0000ms, 0710ms total)
T493C 024:855 JLINK_ReadReg(R14)  returns 0x080001F9 (0000ms, 0710ms total)
T493C 024:855 JLINK_ReadReg(R15 (PC))  returns 0x080001F4 (0000ms, 0710ms total)
T493C 024:855 JLINK_ReadReg(XPSR)  returns 0x01000000 (0000ms, 0710ms total)
T493C 024:855 JLINK_ReadReg(MSP)  returns 0x20002978 (0000ms, 0710ms total)
T493C 024:855 JLINK_ReadReg(PSP)  returns 0x20001000 (0000ms, 0710ms total)
T493C 024:855 JLINK_ReadReg(CFBP)  returns 0x00000000 (0000ms, 0710ms total)
T5AA4 024:858 JLINK_ReadMemU32(0xE0001004, 0x0001 Items, ...) - Data: 41 7E 0C 23  returns 0x01 (0000ms, 0710ms total)
T5AA4 024:858 JLINK_ReadMem (0x2000003C, 0x0002 Bytes, ...) -- CPU_ReadMem(64 bytes @ 0x20000000) -- Updating C cache (64 bytes @ 0x20000000) -- Read from C cache (2 bytes @ 0x2000003C) - Data: 00 00  returns 0x00 (0001ms, 0711ms total)
T5AA4 024:860 JLINK_ReadMem (0x20000858, 0x0001 Bytes, ...) -- Read from C cache (1 bytes @ 0x20000858) - Data: 00  returns 0x00 (0000ms, 0711ms total)
T5AA4 024:860 JLINK_ReadMem (0x20000000, 0x0004 Bytes, ...) -- Read from C cache (4 bytes @ 0x20000000) - Data: FC E2 07 01  returns 0x00 (0000ms, 0711ms total)
T493C 026:169 JLINK_ReadMem (0x080001F4, 0x003C Bytes, ...) -- Read from C cache (60 bytes @ 0x080001F4) - Data: 00 F0 EE FD F7 E7 00 00 00 00 00 20 70 47 00 BF ...  returns 0x00 (0000ms, 0711ms total)
T493C 026:169 JLINK_SetBPEx(Addr = 0x080001F8, Type = 0xFFFFFFF2)  returns 0x00000003 (0001ms, 0712ms total)
T493C 026:170 JLINK_SetBPEx(Addr = 0x080001EA, Type = 0xFFFFFFF2)  returns 0x00000004 (0000ms, 0712ms total)
T493C 026:170 JLINK_Go() -- CPU_WriteMem(4 bytes @ 0xE0002000) -- CPU_WriteMem(4 bytes @ 0xE0002000) -- CPU_WriteMem(4 bytes @ 0xE0002008) -- CPU_WriteMem(4 bytes @ 0xE000200C) -- CPU_WriteMem(4 bytes @ 0xE0001004) (0003ms, 0715ms total)
T493C 026:274 JLINK_IsHalted()  returns TRUE (0002ms, 0717ms total)
T493C 026:276 JLINK_Halt()  returns 0x00 (0000ms, 0715ms total)
T493C 026:276 JLINK_IsHalted()  returns TRUE (0000ms, 0715ms total)
T493C 026:276 JLINK_IsHalted()  returns TRUE (0000ms, 0715ms total)
T493C 026:276 JLINK_IsHalted()  returns TRUE (0000ms, 0715ms total)
T493C 026:276 JLINK_ReadReg(R15 (PC))  returns 0x080001F8 (0000ms, 0715ms total)
T493C 026:276 JLINK_ReadReg(XPSR)  returns 0x81000000 (0000ms, 0715ms total)
T493C 026:276 JLINK_ClrBPEx(BPHandle = 0x00000003)  returns 0x00 (0000ms, 0715ms total)
T493C 026:276 JLINK_ClrBPEx(BPHandle = 0x00000004)  returns 0x00 (0000ms, 0715ms total)
T493C 026:276 JLINK_ReadMemU32(0xE000ED30, 0x0001 Items, ...) -- CPU_ReadMem(4 bytes @ 0xE000ED30) - Data: 03 00 00 00  returns 0x01 (0001ms, 0716ms total)
T493C 026:277 JLINK_ReadMemU32(0xE0001028, 0x0001 Items, ...) -- CPU_ReadMem(4 bytes @ 0xE0001028) - Data: 00 00 00 00  returns 0x01 (0000ms, 0716ms total)
T493C 026:277 JLINK_ReadMemU32(0xE0001038, 0x0001 Items, ...) -- CPU_ReadMem(4 bytes @ 0xE0001038) - Data: 00 02 00 00  returns 0x01 (0001ms, 0717ms total)
T493C 026:278 JLINK_ReadMemU32(0xE0001048, 0x0001 Items, ...) -- CPU_ReadMem(4 bytes @ 0xE0001048) - Data: 00 00 00 00  returns 0x01 (0000ms, 0717ms total)
T493C 026:278 JLINK_ReadMemU32(0xE0001058, 0x0001 Items, ...) -- CPU_ReadMem(4 bytes @ 0xE0001058) - Data: 00 00 00 00  returns 0x01 (0000ms, 0717ms total)
T493C 026:279 JLINK_ReadReg(R0)  returns 0x00000000 (0000ms, 0717ms total)
T493C 026:279 JLINK_ReadReg(R1)  returns 0x20000000 (0000ms, 0717ms total)
T493C 026:279 JLINK_ReadReg(R2)  returns 0xE000ED0C (0000ms, 0717ms total)
T493C 026:279 JLINK_ReadReg(R3)  returns 0x10036000 (0000ms, 0717ms total)
T493C 026:279 JLINK_ReadReg(R4)  returns 0x00000000 (0000ms, 0717ms total)
T493C 026:279 JLINK_ReadReg(R5)  returns 0x20002318 (0000ms, 0717ms total)
T493C 026:279 JLINK_ReadReg(R6)  returns 0x00000000 (0000ms, 0717ms total)
T493C 026:279 JLINK_ReadReg(R7)  returns 0x00000000 (0000ms, 0717ms total)
T493C 026:279 JLINK_ReadReg(R8)  returns 0x00000000 (0000ms, 0717ms total)
T493C 026:279 JLINK_ReadReg(R9)  returns 0x20000160 (0000ms, 0717ms total)
T493C 026:279 JLINK_ReadReg(R10)  returns 0x08002E38 (0000ms, 0717ms total)
T493C 026:279 JLINK_ReadReg(R11)  returns 0x00000000 (0000ms, 0717ms total)
T493C 026:279 JLINK_ReadReg(R12)  returns 0x00006000 (0000ms, 0717ms total)
T493C 026:279 JLINK_ReadReg(R13 (SP))  returns 0x20002978 (0000ms, 0717ms total)
T493C 026:279 JLINK_ReadReg(R14)  returns 0x080001F9 (0000ms, 0717ms total)
T493C 026:279 JLINK_ReadReg(R15 (PC))  returns 0x080001F8 (0000ms, 0717ms total)
T493C 026:279 JLINK_ReadReg(XPSR)  returns 0x81000000 (0000ms, 0717ms total)
T493C 026:279 JLINK_ReadReg(MSP)  returns 0x20002978 (0000ms, 0717ms total)
T493C 026:279 JLINK_ReadReg(PSP)  returns 0x20001000 (0000ms, 0717ms total)
T493C 026:279 JLINK_ReadReg(CFBP)  returns 0x00000000 (0000ms, 0717ms total)
T5AA4 026:280 JLINK_ReadMemU32(0xE0001004, 0x0001 Items, ...) -- CPU_ReadMem(4 bytes @ 0xE0001004) - Data: 61 7E 0C 23  returns 0x01 (0001ms, 0718ms total)
T5AA4 026:281 JLINK_ReadMem (0x2000003C, 0x0002 Bytes, ...) -- CPU_ReadMem(64 bytes @ 0x20000000) -- Updating C cache (64 bytes @ 0x20000000) -- Read from C cache (2 bytes @ 0x2000003C) - Data: 00 00  returns 0x00 (0001ms, 0719ms total)
T5AA4 026:283 JLINK_ReadMem (0x20000858, 0x0001 Bytes, ...) -- CPU_ReadMem(64 bytes @ 0x20000840) -- Updating C cache (64 bytes @ 0x20000840) -- Read from C cache (1 bytes @ 0x20000858) - Data: 00  returns 0x00 (0001ms, 0720ms total)
T5AA4 026:284 JLINK_ReadMem (0x20000000, 0x0004 Bytes, ...) -- Read from C cache (4 bytes @ 0x20000000) - Data: FC E2 07 01  returns 0x00 (0000ms, 0720ms total)
T5AA4 026:288 JLINK_ReadMem (0x080001F8, 0x003C Bytes, ...) -- CPU_ReadMem(128 bytes @ 0x080001C0) -- Updating C cache (128 bytes @ 0x080001C0) -- Read from C cache (60 bytes @ 0x080001F8) - Data: F7 E7 00 00 00 00 00 20 70 47 00 BF FE E7 00 BF ...  returns 0x00 (0001ms, 0721ms total)
T493C 027:229 JLINK_Step() -- Read from C cache (2 bytes @ 0x080001F8) -- Simulated  returns 0x00 (0001ms, 0722ms total)
T493C 027:230 JLINK_ReadReg(R15 (PC))  returns 0x080001EA (0000ms, 0722ms total)
T493C 027:230 JLINK_ReadReg(XPSR)  returns 0x81000000 (0000ms, 0722ms total)
T493C 027:230 JLINK_ReadReg(R0)  returns 0x00000000 (0000ms, 0722ms total)
T493C 027:230 JLINK_ReadReg(R1)  returns 0x20000000 (0000ms, 0722ms total)
T493C 027:230 JLINK_ReadReg(R2)  returns 0xE000ED0C (0000ms, 0722ms total)
T493C 027:230 JLINK_ReadReg(R3)  returns 0x10036000 (0000ms, 0722ms total)
T493C 027:230 JLINK_ReadReg(R4)  returns 0x00000000 (0000ms, 0722ms total)
T493C 027:230 JLINK_ReadReg(R5)  returns 0x20002318 (0000ms, 0722ms total)
T493C 027:230 JLINK_ReadReg(R6)  returns 0x00000000 (0000ms, 0722ms total)
T493C 027:230 JLINK_ReadReg(R7)  returns 0x00000000 (0000ms, 0722ms total)
T493C 027:230 JLINK_ReadReg(R8)  returns 0x00000000 (0000ms, 0722ms total)
T493C 027:230 JLINK_ReadReg(R9)  returns 0x20000160 (0000ms, 0722ms total)
T493C 027:230 JLINK_ReadReg(R10)  returns 0x08002E38 (0000ms, 0722ms total)
T493C 027:230 JLINK_ReadReg(R11)  returns 0x00000000 (0000ms, 0722ms total)
T493C 027:230 JLINK_ReadReg(R12)  returns 0x00006000 (0000ms, 0722ms total)
T493C 027:230 JLINK_ReadReg(R13 (SP))  returns 0x20002978 (0000ms, 0722ms total)
T493C 027:230 JLINK_ReadReg(R14)  returns 0x080001F9 (0000ms, 0722ms total)
T493C 027:230 JLINK_ReadReg(R15 (PC))  returns 0x080001EA (0000ms, 0722ms total)
T493C 027:230 JLINK_ReadReg(XPSR)  returns 0x81000000 (0000ms, 0722ms total)
T493C 027:230 JLINK_ReadReg(MSP)  returns 0x20002978 (0000ms, 0722ms total)
T493C 027:230 JLINK_ReadReg(PSP)  returns 0x20001000 (0000ms, 0722ms total)
T493C 027:230 JLINK_ReadReg(CFBP)  returns 0x00000000 (0000ms, 0722ms total)
T5AA4 027:233 JLINK_ReadMemU32(0xE0001004, 0x0001 Items, ...) - Data: 61 7E 0C 23  returns 0x01 (0000ms, 0722ms total)
T5AA4 027:233 JLINK_ReadMem (0x2000003C, 0x0002 Bytes, ...) -- Read from C cache (2 bytes @ 0x2000003C) - Data: 00 00  returns 0x00 (0000ms, 0722ms total)
T5AA4 027:234 JLINK_ReadMem (0x20000858, 0x0001 Bytes, ...) -- Read from C cache (1 bytes @ 0x20000858) - Data: 00  returns 0x00 (0000ms, 0722ms total)
T5AA4 027:234 JLINK_ReadMem (0x20000000, 0x0004 Bytes, ...) -- Read from C cache (4 bytes @ 0x20000000) - Data: FC E2 07 01  returns 0x00 (0000ms, 0722ms total)
T493C 027:874 JLINK_ReadMem (0x080001EA, 0x0002 Bytes, ...) -- Read from C cache (2 bytes @ 0x080001EA) - Data: 04 48  returns 0x00 (0000ms, 0722ms total)
T493C 027:874 JLINK_ReadMem (0x080001EC, 0x003C Bytes, ...) -- Read from C cache (60 bytes @ 0x080001EC) - Data: 00 68 40 1C 02 49 08 60 00 F0 EE FD F7 E7 00 00 ...  returns 0x00 (0000ms, 0722ms total)
T493C 027:874 JLINK_Step() -- Read from C cache (2 bytes @ 0x080001EA) -- Read from C cache (4 bytes @ 0x080001FC) -- Simulated  returns 0x00 (0000ms, 0722ms total)
T493C 027:874 JLINK_ReadReg(R15 (PC))  returns 0x080001EC (0000ms, 0722ms total)
T493C 027:874 JLINK_ReadReg(XPSR)  returns 0x81000000 (0000ms, 0722ms total)
T493C 027:874 JLINK_Step() -- Read from C cache (2 bytes @ 0x080001EC) -- Read from C cache (4 bytes @ 0x20000000) -- Simulated  returns 0x00 (0000ms, 0722ms total)
T493C 027:874 JLINK_ReadReg(R15 (PC))  returns 0x080001EE (0000ms, 0722ms total)
T493C 027:874 JLINK_ReadReg(XPSR)  returns 0x81000000 (0000ms, 0722ms total)
T493C 027:874 JLINK_Step() -- Read from C cache (2 bytes @ 0x080001EE) -- Simulated  returns 0x00 (0000ms, 0722ms total)
T493C 027:874 JLINK_ReadReg(R15 (PC))  returns 0x080001F0 (0000ms, 0722ms total)
T493C 027:874 JLINK_ReadReg(XPSR)  returns 0x01000000 (0000ms, 0722ms total)
T493C 027:875 JLINK_Step() -- Read from C cache (2 bytes @ 0x080001F0) -- Read from C cache (4 bytes @ 0x080001FC) -- Simulated  returns 0x00 (0000ms, 0722ms total)
T493C 027:875 JLINK_ReadReg(R15 (PC))  returns 0x080001F2 (0000ms, 0722ms total)
T493C 027:875 JLINK_ReadReg(XPSR)  returns 0x01000000 (0000ms, 0722ms total)
T493C 027:875 JLINK_Step() -- Read from C cache (2 bytes @ 0x080001F2) -- CPU_WriteMem(4 bytes @ 0x20000000) -- Simulated  returns 0x00 (0000ms, 0722ms total)
T493C 027:875 JLINK_ReadReg(R15 (PC))  returns 0x080001F4 (0000ms, 0722ms total)
T493C 027:875 JLINK_ReadReg(XPSR)  returns 0x01000000 (0000ms, 0722ms total)
T493C 027:875 JLINK_ReadReg(R0)  returns 0x0107E2FD (0000ms, 0722ms total)
T493C 027:875 JLINK_ReadReg(R1)  returns 0x20000000 (0000ms, 0722ms total)
T493C 027:875 JLINK_ReadReg(R2)  returns 0xE000ED0C (0000ms, 0722ms total)
T493C 027:875 JLINK_ReadReg(R3)  returns 0x10036000 (0000ms, 0722ms total)
T493C 027:875 JLINK_ReadReg(R4)  returns 0x00000000 (0000ms, 0722ms total)
T493C 027:875 JLINK_ReadReg(R5)  returns 0x20002318 (0000ms, 0722ms total)
T493C 027:875 JLINK_ReadReg(R6)  returns 0x00000000 (0000ms, 0722ms total)
T493C 027:875 JLINK_ReadReg(R7)  returns 0x00000000 (0000ms, 0722ms total)
T493C 027:875 JLINK_ReadReg(R8)  returns 0x00000000 (0000ms, 0722ms total)
T493C 027:875 JLINK_ReadReg(R9)  returns 0x20000160 (0000ms, 0722ms total)
T493C 027:875 JLINK_ReadReg(R10)  returns 0x08002E38 (0000ms, 0722ms total)
T493C 027:875 JLINK_ReadReg(R11)  returns 0x00000000 (0000ms, 0722ms total)
T493C 027:875 JLINK_ReadReg(R12)  returns 0x00006000 (0000ms, 0722ms total)
T493C 027:875 JLINK_ReadReg(R13 (SP))  returns 0x20002978 (0000ms, 0722ms total)
T493C 027:875 JLINK_ReadReg(R14)  returns 0x080001F9 (0000ms, 0722ms total)
T493C 027:875 JLINK_ReadReg(R15 (PC))  returns 0x080001F4 (0000ms, 0722ms total)
T493C 027:875 JLINK_ReadReg(XPSR)  returns 0x01000000 (0000ms, 0722ms total)
T493C 027:875 JLINK_ReadReg(MSP)  returns 0x20002978 (0000ms, 0722ms total)
T493C 027:875 JLINK_ReadReg(PSP)  returns 0x20001000 (0000ms, 0722ms total)
T493C 027:875 JLINK_ReadReg(CFBP)  returns 0x00000000 (0000ms, 0722ms total)
T5AA4 027:877 JLINK_ReadMemU32(0xE0001004, 0x0001 Items, ...) - Data: 61 7E 0C 23  returns 0x01 (0000ms, 0722ms total)
T5AA4 027:877 JLINK_ReadMem (0x2000003C, 0x0002 Bytes, ...) -- CPU_ReadMem(64 bytes @ 0x20000000) -- Updating C cache (64 bytes @ 0x20000000) -- Read from C cache (2 bytes @ 0x2000003C) - Data: 00 00  returns 0x00 (0001ms, 0723ms total)
T5AA4 027:880 JLINK_ReadMem (0x20000858, 0x0001 Bytes, ...) -- Read from C cache (1 bytes @ 0x20000858) - Data: 00  returns 0x00 (0000ms, 0723ms total)
T5AA4 027:880 JLINK_ReadMem (0x20000000, 0x0004 Bytes, ...) -- Read from C cache (4 bytes @ 0x20000000) - Data: FD E2 07 01  returns 0x00 (0000ms, 0723ms total)
T493C 028:514 JLINK_ReadMem (0x080001F4, 0x003C Bytes, ...) -- Read from C cache (60 bytes @ 0x080001F4) - Data: 00 F0 EE FD F7 E7 00 00 00 00 00 20 70 47 00 BF ...  returns 0x00 (0000ms, 0723ms total)
T493C 028:514 JLINK_SetBPEx(Addr = 0x080001F8, Type = 0xFFFFFFF2)  returns 0x00000005 (0000ms, 0723ms total)
T493C 028:514 JLINK_SetBPEx(Addr = 0x080001EA, Type = 0xFFFFFFF2)  returns 0x00000006 (0000ms, 0723ms total)
T493C 028:514 JLINK_Go() -- CPU_WriteMem(4 bytes @ 0xE0002000) -- CPU_WriteMem(4 bytes @ 0xE0002000) -- CPU_WriteMem(4 bytes @ 0xE0001004) (0003ms, 0726ms total)
T493C 028:617 JLINK_IsHalted()  returns TRUE (0003ms, 0729ms total)
T493C 028:620 JLINK_Halt()  returns 0x00 (0000ms, 0726ms total)
T493C 028:620 JLINK_IsHalted()  returns TRUE (0000ms, 0726ms total)
T493C 028:620 JLINK_IsHalted()  returns TRUE (0000ms, 0726ms total)
T493C 028:620 JLINK_IsHalted()  returns TRUE (0000ms, 0726ms total)
T493C 028:620 JLINK_ReadReg(R15 (PC))  returns 0x080001F8 (0000ms, 0726ms total)
T493C 028:620 JLINK_ReadReg(XPSR)  returns 0x81000000 (0000ms, 0726ms total)
T493C 028:620 JLINK_ClrBPEx(BPHandle = 0x00000005)  returns 0x00 (0000ms, 0726ms total)
T493C 028:620 JLINK_ClrBPEx(BPHandle = 0x00000006)  returns 0x00 (0000ms, 0726ms total)
T493C 028:620 JLINK_ReadMemU32(0xE000ED30, 0x0001 Items, ...) -- CPU_ReadMem(4 bytes @ 0xE000ED30) - Data: 03 00 00 00  returns 0x01 (0001ms, 0727ms total)
T493C 028:621 JLINK_ReadMemU32(0xE0001028, 0x0001 Items, ...) -- CPU_ReadMem(4 bytes @ 0xE0001028) - Data: 00 00 00 00  returns 0x01 (0000ms, 0727ms total)
T493C 028:621 JLINK_ReadMemU32(0xE0001038, 0x0001 Items, ...) -- CPU_ReadMem(4 bytes @ 0xE0001038) - Data: 00 02 00 00  returns 0x01 (0001ms, 0728ms total)
T493C 028:622 JLINK_ReadMemU32(0xE0001048, 0x0001 Items, ...) -- CPU_ReadMem(4 bytes @ 0xE0001048) - Data: 00 00 00 00  returns 0x01 (0000ms, 0728ms total)
T493C 028:622 JLINK_ReadMemU32(0xE0001058, 0x0001 Items, ...) -- CPU_ReadMem(4 bytes @ 0xE0001058) - Data: 00 00 00 00  returns 0x01 (0000ms, 0728ms total)
T493C 028:622 JLINK_ReadReg(R0)  returns 0x00000000 (0000ms, 0728ms total)
T493C 028:622 JLINK_ReadReg(R1)  returns 0x20000000 (0000ms, 0728ms total)
T493C 028:622 JLINK_ReadReg(R2)  returns 0xE000ED0C (0000ms, 0728ms total)
T493C 028:623 JLINK_ReadReg(R3)  returns 0x10036000 (0000ms, 0729ms total)
T493C 028:623 JLINK_ReadReg(R4)  returns 0x00000000 (0000ms, 0729ms total)
T493C 028:623 JLINK_ReadReg(R5)  returns 0x20002318 (0000ms, 0729ms total)
T493C 028:623 JLINK_ReadReg(R6)  returns 0x00000000 (0000ms, 0729ms total)
T493C 028:623 JLINK_ReadReg(R7)  returns 0x00000000 (0000ms, 0729ms total)
T493C 028:623 JLINK_ReadReg(R8)  returns 0x00000000 (0000ms, 0729ms total)
T493C 028:623 JLINK_ReadReg(R9)  returns 0x20000160 (0000ms, 0729ms total)
T493C 028:623 JLINK_ReadReg(R10)  returns 0x08002E38 (0000ms, 0729ms total)
T493C 028:623 JLINK_ReadReg(R11)  returns 0x00000000 (0000ms, 0729ms total)
T493C 028:623 JLINK_ReadReg(R12)  returns 0x00006000 (0000ms, 0729ms total)
T493C 028:623 JLINK_ReadReg(R13 (SP))  returns 0x20002978 (0000ms, 0729ms total)
T493C 028:623 JLINK_ReadReg(R14)  returns 0x080001F9 (0000ms, 0729ms total)
T493C 028:623 JLINK_ReadReg(R15 (PC))  returns 0x080001F8 (0000ms, 0729ms total)
T493C 028:623 JLINK_ReadReg(XPSR)  returns 0x81000000 (0000ms, 0729ms total)
T493C 028:623 JLINK_ReadReg(MSP)  returns 0x20002978 (0000ms, 0729ms total)
T493C 028:623 JLINK_ReadReg(PSP)  returns 0x20001000 (0000ms, 0729ms total)
T493C 028:623 JLINK_ReadReg(CFBP)  returns 0x00000000 (0000ms, 0729ms total)
T5AA4 028:627 JLINK_ReadMemU32(0xE0001004, 0x0001 Items, ...) -- CPU_ReadMem(4 bytes @ 0xE0001004) - Data: 82 7E 0C 23  returns 0x01 (0000ms, 0729ms total)
T5AA4 028:627 JLINK_ReadMem (0x2000003C, 0x0002 Bytes, ...) -- CPU_ReadMem(64 bytes @ 0x20000000) -- Updating C cache (64 bytes @ 0x20000000) -- Read from C cache (2 bytes @ 0x2000003C) - Data: 00 00  returns 0x00 (0001ms, 0730ms total)
T5AA4 028:630 JLINK_ReadMem (0x20000858, 0x0001 Bytes, ...) -- CPU_ReadMem(64 bytes @ 0x20000840) -- Updating C cache (64 bytes @ 0x20000840) -- Read from C cache (1 bytes @ 0x20000858) - Data: 00  returns 0x00 (0001ms, 0731ms total)
T5AA4 028:631 JLINK_ReadMem (0x20000000, 0x0004 Bytes, ...) -- Read from C cache (4 bytes @ 0x20000000) - Data: FD E2 07 01  returns 0x00 (0000ms, 0731ms total)
T5AA4 028:637 JLINK_ReadMem (0x080001F8, 0x003C Bytes, ...) -- CPU_ReadMem(128 bytes @ 0x080001C0) -- Updating C cache (128 bytes @ 0x080001C0) -- Read from C cache (60 bytes @ 0x080001F8) - Data: F7 E7 00 00 00 00 00 20 70 47 00 BF FE E7 00 BF ...  returns 0x00 (0002ms, 0733ms total)
T493C 028:939 JLINK_Step() -- Read from C cache (2 bytes @ 0x080001F8) -- Simulated  returns 0x00 (0000ms, 0733ms total)
T493C 028:939 JLINK_ReadReg(R15 (PC))  returns 0x080001EA (0000ms, 0733ms total)
T493C 028:939 JLINK_ReadReg(XPSR)  returns 0x81000000 (0000ms, 0733ms total)
T493C 028:939 JLINK_ReadReg(R0)  returns 0x00000000 (0000ms, 0733ms total)
T493C 028:939 JLINK_ReadReg(R1)  returns 0x20000000 (0000ms, 0733ms total)
T493C 028:939 JLINK_ReadReg(R2)  returns 0xE000ED0C (0000ms, 0733ms total)
T493C 028:939 JLINK_ReadReg(R3)  returns 0x10036000 (0000ms, 0733ms total)
T493C 028:939 JLINK_ReadReg(R4)  returns 0x00000000 (0000ms, 0733ms total)
T493C 028:939 JLINK_ReadReg(R5)  returns 0x20002318 (0000ms, 0733ms total)
T493C 028:939 JLINK_ReadReg(R6)  returns 0x00000000 (0000ms, 0733ms total)
T493C 028:939 JLINK_ReadReg(R7)  returns 0x00000000 (0000ms, 0733ms total)
T493C 028:939 JLINK_ReadReg(R8)  returns 0x00000000 (0000ms, 0733ms total)
T493C 028:939 JLINK_ReadReg(R9)  returns 0x20000160 (0000ms, 0733ms total)
T493C 028:939 JLINK_ReadReg(R10)  returns 0x08002E38 (0000ms, 0733ms total)
T493C 028:939 JLINK_ReadReg(R11)  returns 0x00000000 (0000ms, 0733ms total)
T493C 028:939 JLINK_ReadReg(R12)  returns 0x00006000 (0000ms, 0733ms total)
T493C 028:939 JLINK_ReadReg(R13 (SP))  returns 0x20002978 (0000ms, 0733ms total)
T493C 028:939 JLINK_ReadReg(R14)  returns 0x080001F9 (0000ms, 0733ms total)
T493C 028:939 JLINK_ReadReg(R15 (PC))  returns 0x080001EA (0000ms, 0733ms total)
T493C 028:939 JLINK_ReadReg(XPSR)  returns 0x81000000 (0000ms, 0733ms total)
T493C 028:939 JLINK_ReadReg(MSP)  returns 0x20002978 (0000ms, 0733ms total)
T493C 028:939 JLINK_ReadReg(PSP)  returns 0x20001000 (0000ms, 0733ms total)
T493C 028:939 JLINK_ReadReg(CFBP)  returns 0x00000000 (0000ms, 0733ms total)
T5AA4 028:945 JLINK_ReadMemU32(0xE0001004, 0x0001 Items, ...) - Data: 82 7E 0C 23  returns 0x01 (0000ms, 0733ms total)
T5AA4 028:945 JLINK_ReadMem (0x2000003C, 0x0002 Bytes, ...) -- Read from C cache (2 bytes @ 0x2000003C) - Data: 00 00  returns 0x00 (0000ms, 0733ms total)
T5AA4 028:946 JLINK_ReadMem (0x20000858, 0x0001 Bytes, ...) -- Read from C cache (1 bytes @ 0x20000858) - Data: 00  returns 0x00 (0000ms, 0733ms total)
T5AA4 028:946 JLINK_ReadMem (0x20000000, 0x0004 Bytes, ...) -- Read from C cache (4 bytes @ 0x20000000) - Data: FD E2 07 01  returns 0x00 (0000ms, 0733ms total)
T493C 029:249 JLINK_ReadMem (0x080001EA, 0x0002 Bytes, ...) -- Read from C cache (2 bytes @ 0x080001EA) - Data: 04 48  returns 0x00 (0000ms, 0733ms total)
T493C 029:249 JLINK_ReadMem (0x080001EC, 0x003C Bytes, ...) -- Read from C cache (60 bytes @ 0x080001EC) - Data: 00 68 40 1C 02 49 08 60 00 F0 EE FD F7 E7 00 00 ...  returns 0x00 (0000ms, 0733ms total)
T493C 029:249 JLINK_Step() -- Read from C cache (2 bytes @ 0x080001EA) -- Read from C cache (4 bytes @ 0x080001FC) -- Simulated  returns 0x00 (0001ms, 0734ms total)
T493C 029:250 JLINK_ReadReg(R15 (PC))  returns 0x080001EC (0000ms, 0734ms total)
T493C 029:250 JLINK_ReadReg(XPSR)  returns 0x81000000 (0000ms, 0734ms total)
T493C 029:250 JLINK_Step() -- Read from C cache (2 bytes @ 0x080001EC) -- Read from C cache (4 bytes @ 0x20000000) -- Simulated  returns 0x00 (0000ms, 0734ms total)
T493C 029:250 JLINK_ReadReg(R15 (PC))  returns 0x080001EE (0000ms, 0734ms total)
T493C 029:250 JLINK_ReadReg(XPSR)  returns 0x81000000 (0000ms, 0734ms total)
T493C 029:250 JLINK_Step() -- Read from C cache (2 bytes @ 0x080001EE) -- Simulated  returns 0x00 (0000ms, 0734ms total)
T493C 029:250 JLINK_ReadReg(R15 (PC))  returns 0x080001F0 (0000ms, 0734ms total)
T493C 029:250 JLINK_ReadReg(XPSR)  returns 0x01000000 (0000ms, 0734ms total)
T493C 029:250 JLINK_Step() -- Read from C cache (2 bytes @ 0x080001F0) -- Read from C cache (4 bytes @ 0x080001FC) -- Simulated  returns 0x00 (0000ms, 0734ms total)
T493C 029:250 JLINK_ReadReg(R15 (PC))  returns 0x080001F2 (0000ms, 0734ms total)
T493C 029:250 JLINK_ReadReg(XPSR)  returns 0x01000000 (0000ms, 0734ms total)
T493C 029:250 JLINK_Step() -- Read from C cache (2 bytes @ 0x080001F2) -- CPU_WriteMem(4 bytes @ 0x20000000) -- Simulated  returns 0x00 (0000ms, 0734ms total)
T493C 029:250 JLINK_ReadReg(R15 (PC))  returns 0x080001F4 (0000ms, 0734ms total)
T493C 029:250 JLINK_ReadReg(XPSR)  returns 0x01000000 (0000ms, 0734ms total)
T493C 029:250 JLINK_ReadReg(R0)  returns 0x0107E2FE (0000ms, 0734ms total)
T493C 029:250 JLINK_ReadReg(R1)  returns 0x20000000 (0000ms, 0734ms total)
T493C 029:250 JLINK_ReadReg(R2)  returns 0xE000ED0C (0000ms, 0734ms total)
T493C 029:250 JLINK_ReadReg(R3)  returns 0x10036000 (0000ms, 0734ms total)
T493C 029:250 JLINK_ReadReg(R4)  returns 0x00000000 (0001ms, 0735ms total)
T493C 029:251 JLINK_ReadReg(R5)  returns 0x20002318 (0000ms, 0735ms total)
T493C 029:251 JLINK_ReadReg(R6)  returns 0x00000000 (0000ms, 0735ms total)
T493C 029:251 JLINK_ReadReg(R7)  returns 0x00000000 (0000ms, 0735ms total)
T493C 029:251 JLINK_ReadReg(R8)  returns 0x00000000 (0000ms, 0735ms total)
T493C 029:251 JLINK_ReadReg(R9)  returns 0x20000160 (0000ms, 0735ms total)
T493C 029:251 JLINK_ReadReg(R10)  returns 0x08002E38 (0000ms, 0735ms total)
T493C 029:251 JLINK_ReadReg(R11)  returns 0x00000000 (0000ms, 0735ms total)
T493C 029:251 JLINK_ReadReg(R12)  returns 0x00006000 (0000ms, 0735ms total)
